Index	Time [s]	Longitude [°]	Latitude [°]	Altitude	Roll [°]	Pitch [°]	Yaw [°]	X [m]	Y [m]	Z [m]
1	0	-116.6847222	32.72722222	34	-0.11536	-0.14832	295.76	-12989283.86	3859152.995	10.3632
2	4	-116.6847222	32.72722222	34	0.36255	-0.26917	295.25	-12989283.86	3859152.995	10.3632
3	8	-116.685	32.72722222	35	0.42297	-0.2417	297.27	-12989314.78	3859152.995	10.668
4	11	-116.685	32.72722222	35	0.0275	0.73608	295.88	-12989314.78	3859152.995	10.668
5	15	-116.685	32.72722222	35	0.18127	0.33508	294.53	-12989314.78	3859152.995	10.668
6	19	-116.6852778	32.72722222	36	0.39001	0.36804	308.05	-12989345.71	3859152.995	10.9728
7	23	-116.6852778	32.7275	36	0.2417	0.0275	334.3	-12989345.71	3859189.752	10.9728
8	27	-116.6852778	32.7275	36	0.14832	0.36804	3.6365	-12989345.71	3859189.752	10.9728
9	31	-116.6852778	32.7275	36	-0.4834	0.30762	18.82	-12989345.71	3859189.752	10.9728
10	35	-116.685	32.72777778	36	-0.42297	0.18127	25.933	-12989314.78	3859226.51	10.9728
11	39	-116.685	32.72777778	36	-0.39551	0.12085	25.67	-12989314.78	3859226.51	10.9728
12	43	-116.685	32.72777778	35	-0.32959	0.12085	25.906	-12989314.78	3859226.51	10.668
13	47	-116.685	32.72777778	35	-0.36255	0.12085	25.873	-12989314.78	3859226.51	10.668
14	51	-116.685	32.72777778	35	-0.32959	0.15381	25.845	-12989314.78	3859226.51	10.668
15	55	-116.685	32.72777778	35	-0.32959	0.12085	25.889	-12989314.78	3859226.51	10.668
16	59	-116.685	32.72777778	35	-0.36255	0.15381	25.856	-12989314.78	3859226.51	10.668
17	64	-116.685	32.72777778	34	-0.36804	0.1593	25.867	-12989314.78	3859226.51	10.3632
18	68	-116.685	32.72777778	34	-0.36255	0.12085	25.873	-12989314.78	3859226.51	10.3632
19	72	-116.685	32.72777778	34	-0.36255	0.15381	25.862	-12989314.78	3859226.51	10.3632
20	76	-116.685	32.72777778	34	-0.36255	0.14832	25.845	-12989314.78	3859226.51	10.3632
21	80	-116.685	32.72777778	35	-0.36255	0.12085	25.889	-12989314.78	3859226.51	10.668
22	84	-116.685	32.72777778	35	-0.35706	0.12085	25.862	-12989314.78	3859226.51	10.668
23	87	-116.685	32.72777778	35	-0.36255	0.15381	25.862	-12989314.78	3859226.51	10.668
24	91	-116.685	32.72777778	35	-0.32959	0.14832	25.845	-12989314.78	3859226.51	10.668
25	95	-116.685	32.72777778	35	-0.36804	0.1593	25.851	-12989314.78	3859226.51	10.668
26	99	-116.685	32.72777778	35	-0.36255	0.15381	25.818	-12989314.78	3859226.51	10.668
27	103	-116.685	32.72777778	35	-0.36804	0.0934	25.856	-12989314.78	3859226.51	10.668
28	107	-116.685	32.72777778	35	-0.33508	-0.34058	25.9	-12989314.78	3859226.51	10.668
29	111	-116.685	32.72777778	34	-0.34058	-0.46692	25.9	-12989314.78	3859226.51	10.3632
30	115	-116.685	32.72777778	35	-0.30212	-0.46143	25.917	-12989314.78	3859226.51	10.668
31	119	-116.685	32.72777778	35	-0.33508	-0.30762	25.906	-12989314.78	3859226.51	10.668
32	123	-116.685	32.72777778	34	-0.33508	-0.28015	25.9	-12989314.78	3859226.51	10.3632
33	127	-116.685	32.72777778	34	-0.33508	-0.28015	25.917	-12989314.78	3859226.51	10.3632
34	131	-116.685	32.72777778	34	-0.33508	-0.43396	25.917	-12989314.78	3859226.51	10.3632
35	135	-116.685	32.72777778	34	-0.30212	-0.30762	25.944	-12989314.78	3859226.51	10.3632
36	139	-116.685	32.72805556	35	-0.0879	-0.21423	26.197	-12989314.78	3859263.268	10.668
37	144	-116.6844444	32.72861111	35	-0.2417	-0.0879	26.29	-12989252.93	3859336.782	10.668
38	148	-116.6838889	32.72972222	35	0.21423	-0.12085	25.598	-12989191.1	3859483.814	10.668
39	152	-116.6830556	32.73138889	35	0.21423	-0.0275	25.17	-12989098.33	3859704.365	10.668
40	156	-116.6822222	32.73361111	36	-0.30762	0.24719	25.615	-12989005.56	3859998.439	10.9728
41	160	-116.6808333	32.73638889	37	-0.27466	0.46692	25.692	-12988850.95	3860366.043	11.2776
42	163	-116.6791667	32.73944444	41	0.63721	11.843	26.378	-12988665.42	3860770.419	12.4968
43	167	-116.6775	32.74305556	97	2.0764	12.634	26.587	-12988479.89	3861248.338	29.5656
44	171	-116.6755556	32.74666667	206	-3.7573	13.903	27.109	-12988263.44	3861726.275	62.7888
45	175	-116.6736111	32.75055556	369	-6.015	13.997	26.093	-12988046.98	3862240.999	112.4712
46	179	-116.6716667	32.755	586	-3.4332	13.48	24.274	-12987830.53	3862829.281	178.6128
47	183	-116.6697222	32.75972222	808	-0.2417	11.47	24.153	-12987614.07	3863454.363	246.2784
48	187	-116.6675	32.76472222	1012	-2.3236	11.245	23.89	-12987366.69	3864116.251	308.4576
49	191	-116.665	32.77	1255	-0.95032	7.6849	23.791	-12987088.39	3864814.952	382.524
50	195	-116.6625	32.77583333	1387	-1.0492	3.2465	23.286	-12986810.09	3865587.247	422.7576
51	199	-116.66	32.78194444	1405	1.1371	2.1478	24.329	-12986531.8	3866396.373	428.244
52	203	-116.6572222	32.78833333	1372	4.021	1.9995	24.576	-12986222.57	3867242.337	418.1856
53	207	-116.6541667	32.79472222	1384	-0.0879	4.5868	25.582	-12985882.44	3868088.362	421.8432
54	211	-116.6511111	32.80111111	1494	-1.8347	4.8395	24.576	-12985542.29	3868934.448	455.3712
55	215	-116.6480556	32.80777778	1664	-0.2417	7.4597	24.5	-12985202.15	3869817.385	507.1872
56	220	-116.6452778	32.81472222	1893	-3.7408	7.663	23.412	-12984892.93	3870737.18	576.9864
57	224	-116.6422222	32.82138889	2152	-4.9493	9.1187	22.462	-12984552.78	3871620.252	655.9296
58	228	-116.6394444	32.82833333	2505	-3.642	10.915	21.907	-12984243.56	3872540.189	763.524
59	232	-116.6366667	32.83527778	2927	-2.027	11.547	21.407	-12983934.34	3873460.199	892.1496
60	236	-116.6338889	32.84194444	3368	-0.18127	11.777	21.039	-12983625.12	3874343.474	1026.5664
61	240	-116.6313889	32.84888889	3808	1.9446	10.679	21.116	-12983346.82	3875263.625	1160.6784
62	243	-116.6286111	32.85555556	4209	1.2524	10.042	21.33	-12983037.6	3876147.037	1282.9032
63	247	-116.6261111	32.86222222	4570	0.12085	9.7833	21.16	-12982759.3	3877030.514	1392.936
64	251	-116.6233333	32.86888889	4920	-2.0435	10.129	20.33	-12982450.08	3877914.059	1499.616
65	255	-116.6208333	32.87555556	5246	-1.3513	9.3109	20.462	-12982171.78	3878797.671	1598.9808
66	259	-116.6180556	32.88222222	5532	1.4172	8.0859	20.599	-12981862.57	3879681.347	1686.1536
67	263	-116.6155556	32.88888889	5776	2.2961	7.1796	21.33	-12981584.27	3880565.092	1760.5248
68	267	-116.6130556	32.89555556	5998	-2.5983	7.5751	20.731	-12981305.97	3881448.902	1828.1904
69	271	-116.6102778	32.90222222	6237	-0.92285	7.0972	20.253	-12980996.75	3882332.778	1901.0376
70	275	-116.6077778	32.90888889	6419	2.2577	5.9161	20.649	-12980718.45	3883216.722	1956.5112
71	279	-116.6052778	32.91583333	6562	5.4163	6.9049	21.676	-12980440.15	3884137.567	2000.0976
72	283	-116.6025	32.9225	6757	-1.4117	7.5201	21.731	-12980130.93	3885021.647	2059.5336
73	287	-116.5997222	32.92916667	6972	-0.39001	7.6685	21.533	-12979821.7	3885905.793	2125.0656
74	291	-116.5969444	32.93611111	7224	0.82947	9.5526	21.654	-12979512.48	3886826.849	2201.8752
75	296	-116.5941667	32.94277778	7534	0.61523	10.195	21.462	-12979203.27	3887711.131	2296.3632
76	300	-116.5913889	32.94972222	7878	-5.8612	9.0967	21.484	-12978894.04	3888632.329	2401.2144
77	304	-116.5886111	32.95666667	8180	6.5588	8.7177	21.484	-12978584.82	3889553.6	2493.264
78	308	-116.5858333	32.96333333	8448	26.966	8.1024	26.18	-12978275.6	3890438.087	2574.9504
79	312	-116.5825	32.96972222	8686	20.154	8.7396	30.487	-12977904.54	3891285.784	2647.4928
80	316	-116.5788889	32.97583333	8926	21.522	8.822	34.75	-12977502.55	3892096.681	2720.6448
81	319	-116.5747222	32.98166667	9157	22.753	8.6188	39.446	-12977038.71	3892870.773	2791.0536
82	323	-116.5702778	32.98694444	9375	26.466	7.8827	45.154	-12976543.97	3893571.184	2857.5
83	327	-116.5652778	32.99194444	9574	22.742	8.9539	50.186	-12975987.37	3894234.771	2918.1552
84	331	-116.56	32.99638889	9788	11.052	8.4869	54.229	-12975399.85	3894824.659	2983.3824
85	335	-116.5544444	33.00027778	9999	10.19	8.5803	55.388	-12974781.4	3895340.834	3047.6952
86	339	-116.5486111	33.00444444	10203	6.9434	8.3496	56.926	-12974132.04	3895893.903	3109.8744
87	343	-116.5427778	33.00833333	10413	4.7296	8.6627	58.013	-12973482.68	3896410.126	3173.8824
88	347	-116.5366667	33.01222222	10624	1.2524	8.2068	58.162	-12972802.4	3896926.371	3238.1952
89	351	-116.5305556	33.01611111	10830	1.9061	7.5641	58.271	-12972122.11	3897442.639	3300.984
90	355	-116.5244444	33.01972222	11032	0.69763	7.5916	58.37	-12971441.82	3897922.051	3362.5536
91	359	-116.5183333	33.02361111	11219	1.5985	6.8939	58.392	-12970761.53	3898438.363	3419.5512
92	363	-116.5119444	33.0275	11375	-1.7853	5.9436	58.03	-12970050.32	3898954.698	3467.1
93	367	-116.5058333	33.03138889	11512	-0.48889	5.8612	58.14	-12969370.04	3899471.055	3508.8576
94	372	-116.4994444	33.03555556	11669	0.36804	6.1963	58.321	-12968658.83	3900024.321	3556.7112
95	376	-116.4930556	33.03944444	11834	0.15381	6.5479	58.14	-12967947.63	3900540.724	3607.0032
96	380	-116.4863889	33.04361111	11991	0.0604	5.5756	57.805	-12967205.5	3901094.041	3654.8568
97	384	-116.48	33.04777778	12122	-1.0712	4.7021	57.711	-12966494.29	3901647.383	3694.7856
98	388	-116.4733333	33.05194444	12251	-0.26917	5.603	57.546	-12965752.15	3902200.75	3734.1048
99	392	-116.4666667	33.05611111	12409	21.929	6.0974	59.914	-12965010.03	3902754.145	3782.2632
100	395	-116.4597222	33.05972222	12567	38.853	5.9546	67.495	-12964236.97	3903233.775	3830.4216
101	399	-116.4522222	33.0625	12723	47.335	5.2405	76.761	-12963402.08	3903602.734	3877.9704
102	403	-116.4441667	33.06416667	12842	59.93	4.9219	90.747	-12962505.34	3903824.116	3914.2416
103	407	-116.4363889	33.06361111	12944	56.711	4.9933	104.39	-12961639.52	3903750.321	3945.3312
104	411	-116.4286111	33.06111111	13055	56.558	6.2238	120.4	-12960773.7	3903418.253	3979.164
105	415	-116.4219444	33.05694444	13176	49.351	6.2402	132.14	-12960031.57	3902864.827	4016.0448
106	419	-116.4166667	33.05138889	13330	49.812	8.3331	145.86	-12959444.06	3902126.967	4062.984
107	423	-116.4127778	33.04527778	13567	45.412	10.333	159.19	-12959011.15	3901315.375	4135.2216
108	427	-116.4102778	33.03833333	13866	45.06	12.321	171.59	-12958732.85	3900393.178	4226.3568
109	431	-116.4094444	33.03138889	14229	5.2954	11.997	175.23	-12958640.07	3899471.055	4336.9992
110	435	-116.4088889	33.02444444	14576	5.1086	10.767	177.01	-12958578.24	3898549.004	4442.7648
111	439	-116.4083333	33.0175	14859	1.0876	10.327	176.87	-12958516.39	3897627.026	4529.0232
112	443	-116.4077778	33.01027778	15081	-0.35706	7.6849	176.65	-12958454.55	3896668.246	4596.6888
113	448	-116.4072222	33.00333333	15227	2.6642	6.1084	177.36	-12958392.7	3895746.416	4641.1896
114	452	-116.4066667	32.99611111	15331	3.8947	6.5588	177.94	-12958330.86	3894787.79	4672.8888
115	456	-116.4063889	32.98888889	15445	4.1638	5.7404	178.65	-12958299.94	3893829.242	4707.636
116	460	-116.4061111	32.98138889	15543	3.0432	5.8667	179.17	-12958269.01	3892833.91	4737.5064
117	464	-116.4058333	32.97416667	15625	1.4282	5.0482	179.26	-12958238.09	3891875.523	4762.5
118	468	-116.4055556	32.96666667	15715	2.774	6.0919	179.92	-12958207.17	3890880.357	4789.932
119	472	-116.4052778	32.95916667	15840	2.6917	6.7181	180.02	-12958176.25	3889885.275	4828.032
120	475	-116.4052778	32.95138889	15998	3.9221	7.8662	180.44	-12958176.25	3888853.428	4876.1904
121	479	-116.4052778	32.94388889	16180	0.39551	6.4929	180.45	-12958176.25	3887858.518	4931.664
122	483	-116.4052778	32.93611111	16328	0.45044	5.658	180.68	-12958176.25	3886826.849	4976.7744
123	487	-116.4052778	32.92833333	16438	-0.63171	5.1141	180.51	-12958176.25	3885795.27	5010.3024
124	491	-116.405	32.92027778	16520	-2.0599	3.4497	180.12	-12958145.33	3884726.947	5035.296
125	495	-116.405	32.9125	16559	0.45044	4.3506	180.05	-12958145.33	3883695.553	5047.1832
126	499	-116.405	32.90444444	16626	-1.2964	3.6969	179.92	-12958145.33	3882627.419	5067.6048
127	503	-116.4047222	32.89611111	16665	-0.83496	3.1366	179.47	-12958114.4	3881522.556	5079.492
128	507	-116.4047222	32.88777778	16697	1.7908	4.0265	179.79	-12958114.4	3880417.796	5089.2456
129	511	-116.4044444	32.87944444	16771	1.6534	4.3671	179.88	-12958083.48	3879313.14	5111.8008
130	515	-116.4044444	32.87111111	16867	1.4557	4.8669	179.79	-12958083.48	3878208.589	5141.0616
131	519	-116.4044444	32.8625	16989	19.479	5.4218	181.52	-12958083.48	3877067.328	5178.2472
132	524	-116.405	32.85388889	17135	29.141	5.7513	187.26	-12958145.33	3875926.177	5222.748
133	528	-116.4061111	32.84555556	17322	35.25	7.0697	194.77	-12958269.01	3874821.944	5279.7456
134	532	-116.4083333	32.8375	17537	38.469	7.0313	201.97	-12958516.39	3873754.616	5345.2776
135	536	-116.4116667	32.82972222	17732	39.803	6.2787	209.3	-12958887.46	3872724.185	5404.7136
136	540	-116.4158333	32.82222222	17919	4.5813	8.0475	212.07	-12959351.28	3871730.641	5461.7112
137	544	-116.4202778	32.815	18161	-2.8455	5.592	211.55	-12959846.04	3870773.974	5535.4728
138	548	-116.4244444	32.8075	18327	-36.343	6.5588	208.3	-12960309.87	3869780.594	5586.0696
139	551	-116.4280556	32.8	18478	-55.893	5.1526	195.43	-12960711.86	3868787.298	5632.0944
140	555	-116.4297222	32.79166667	18558	-60.018	2.6807	183.35	-12960897.39	3867683.735	5656.4784
141	559	-116.43	32.78305556	18537	-54.141	1.972	170.52	-12960928.31	3866543.494	5650.0776
142	563	-116.4280556	32.77472222	18491	-53.86	2.3236	157.02	-12960711.86	3865440.139	5636.0568
143	567	-116.4247222	32.76694444	18467	-50.674	3.0981	144.41	-12960340.79	3864410.436	5628.7416
144	568	-116.4236111	32.76527778	18465	-51.268	3.0927	141.32	-12960217.1	3864189.797	5628.132
145	570	-116.4222222	32.76361111	18463	-50.548	3.4882	137.77	-12960062.49	3863969.162	5627.5224
146	570	-116.4208333	32.76166667	18464	-50.68	3.4387	134.73	-12959907.88	3863711.76	5627.8272
147	571	-116.4194444	32.76027778	18469	-51.356	3.2684	132.07	-12959753.27	3863527.905	5629.3512
148	572	-116.4180556	32.75861111	18473	-49.526	3.3618	129.29	-12959598.67	3863307.282	5630.5704
149	574	-116.4163889	32.75722222	18477	-49.411	3.7683	126.11	-12959413.13	3863123.433	5631.7896
150	574	-116.415	32.75583333	18484	-49.213	3.9441	123.06	-12959258.52	3862939.587	5633.9232
151	575	-116.4130556	32.75472222	18493	-50.268	3.7848	120.34	-12959042.07	3862792.512	5636.6664
152	576	-116.4113889	32.75333333	18501	-49.411	3.9606	117.36	-12958856.53	3862608.671	5639.1048
153	578	-116.4097222	32.75222222	18513	-48.719	4.2737	114.42	-12958671	3862461.601	5642.7624
154	578	-116.4077778	32.75138889	18526	-47.78	3.988	112.08	-12958454.55	3862351.299	5646.7248
155	579	-116.4058333	32.75027778	18539	-45.912	4.0649	109.68	-12958238.09	3862204.232	5650.6872
156	580	-116.4038889	32.74972222	18553	-43.5	4.5703	107.1	-12958021.64	3862130.698	5654.9544
157	582	-116.4019444	32.74888889	18572	-41.061	5.6085	104.39	-12957805.18	3862020.4	5660.7456
158	583	-116.4	32.74833333	18598	-42.682	5.658	102.29	-12957588.73	3861946.867	5668.6704
159	583	-116.3980556	32.7475	18628	-37.579	4.8505	100.9	-12957372.28	3861836.571	5677.8144
160	584	-116.3961111	32.74722222	18656	-25.505	4.043	100.8	-12957155.82	3861799.805	5686.3488
161	586	-116.3938889	32.74666667	18679	-15.057	4.054	100.61	-12956908.44	3861726.275	5693.3592
162	587	-116.3919444	32.74611111	18699	-13.035	5.1196	100.03	-12956691.98	3861652.745	5699.4552
163	587	-116.39	32.74583333	18725	-9.2834	5.213	99.476	-12956475.53	3861615.98	5707.38
164	588	-116.3877778	32.74527778	18753	-5.9216	4.9054	99.476	-12956228.16	3861542.451	5715.9144
165	589	-116.3858333	32.745	18782	0.27466	5.0372	99.646	-12956011.7	3861505.686	5724.7536
166	591	-116.3836111	32.74472222	18812	2.6917	5.0482	99.976	-12955764.32	3861468.921	5733.8976
167	591	-116.3816667	32.74416667	18842	2.851	4.9438	99.943	-12955547.87	3861395.394	5743.0416
168	592	-116.3797222	32.74388889	18872	1.9006	5.4382	99.91	-12955331.41	3861358.629	5752.1856
169	593	-116.3775	32.74333333	18908	1.9061	6.2073	100.04	-12955084.04	3861285.101	5763.1584
170	595	-116.3755556	32.74305556	18945	1.4722	6.85	100.05	-12954867.59	3861248.338	5774.436
171	595	-116.3736111	32.7425	18990	1.1975	8.3881	100.02	-12954651.13	3861174.811	5788.152
172	599	-116.365	32.74083333	19299	-0.84045	7.9926	100.36	-12953692.55	3860954.232	5882.3352
173	604	-116.3566667	32.73972222	19656	-59.035	13.019	82.694	-12952764.89	3860807.182	5991.1488
174	608	-116.3488889	32.74083333	20252	-52.267	22.269	60.87	-12951899.07	3860954.232	6172.8096
175	612	-116.3427778	32.74472222	21093	-66.907	24.109	29.707	-12951218.78	3861468.921	6429.1464
176	616	-116.3397222	32.75	21953	-65.577	28.817	2.3236	-12950878.63	3862167.465	6691.2744
177	620	-116.3391667	32.75527778	22757	-80.563	22.088	344.59	-12950816.8	3862866.05	6936.3336
178	624	-116.3408333	32.76027778	23267	-76.657	13.233	320.57	-12951002.32	3863527.905	7091.7816
179	627	-116.3438889	32.76416667	23462	-59.502	12.42	301.17	-12951342.47	3864042.707	7151.2176
180	631	-116.3477778	32.76666667	23486	-51.685	11.838	281.71	-12951775.38	3864373.663	7158.5328
181	633	-116.3488889	32.76694444	23476	-50.18	12.629	277.3	-12951899.07	3864410.436	7155.4848
182	633	-116.35	32.76722222	23466	-46.84	13.112	273.45	-12952022.75	3864447.209	7152.4368
183	634	-116.3511111	32.7675	23456	-44.89	13.195	270.34	-12952146.44	3864483.983	7149.3888
184	635	-116.3522222	32.76777778	23444	-43.149	12.7	267.76	-12952270.13	3864520.758	7145.7312
185	637	-116.3533333	32.76777778	23430	-42.451	12.827	264.4	-12952393.82	3864520.758	7141.464
186	638	-116.3544444	32.76777778	23414	-41.896	12.354	261.17	-12952517.5	3864520.758	7136.5872
187	638	-116.3555556	32.76777778	23394	-40.897	12.431	257.05	-12952641.2	3864520.758	7130.4912
188	639	-116.3566667	32.76777778	23372	-39.287	13.277	252.48	-12952764.89	3864520.758	7123.7856
189	641	-116.3577778	32.7675	23349	-41.166	13.661	248.89	-12952888.57	3864483.983	7116.7752
190	642	-116.3586111	32.76722222	23327	-38.562	13.118	245.93	-12952981.34	3864447.209	7110.0696
191	642	-116.3597222	32.76694444	23303	-38.677	11.805	243.62	-12953105.02	3864410.436	7102.7544
192	643	-116.3608333	32.76666667	23276	-37.776	10.311	241.28	-12953228.71	3864373.663	7094.5248
193	645	-116.3616667	32.76611111	23242	-36.145	9.8108	238.14	-12953321.48	3864300.116	7084.1616
194	646	-116.3627778	32.76583333	23205	-35.92	10.316	234.77	-12953445.17	3864263.343	7072.884
195	646	-116.3636111	32.76527778	23166	-36.013	10.333	231.95	-12953537.93	3864189.797	7060.9968
196	647	-116.3644444	32.76472222	23125	-34.761	9.6295	229.52	-12953630.7	3864116.251	7048.5
197	648	-116.3655556	32.76416667	23081	-33.041	9.1187	226.81	-12953754.4	3864042.707	7035.0888
198	650	-116.3663889	32.76361111	23034	-29.597	8.421	224.4	-12953847.16	3863969.162	7020.7632
199	650	-116.3672222	32.76277778	22980	-23.665	5.6744	223.5	-12953939.92	3863858.847	7004.304
200	651	-116.3680556	32.76222222	22923	-26.257	4.4055	222.57	-12954032.69	3863785.303	6986.9304
201	652	-116.3688889	32.76138889	22860	-22.335	4.7571	220.79	-12954125.46	3863674.989	6967.728
202	654	-116.3694444	32.76055556	22793	-17.358	4.2682	219.65	-12954187.29	3863564.676	6947.3064
203	654	-116.3702778	32.75972222	22724	-17.084	3.0048	219.35	-12954280.07	3863454.363	6926.2752
204	655	-116.3711111	32.75888889	22650	-13.266	2.1313	219.09	-12954372.83	3863344.053	6903.72
205	656	-116.3719444	32.75805556	22572	-10.245	2.1753	218.95	-12954465.59	3863233.743	6879.9456
206	658	-116.3725	32.75722222	22493	-8.0145	2.7301	218.95	-12954527.44	3863123.433	6855.8664
207	659	-116.3733333	32.75638889	22413	-4.9933	2.2302	219.06	-12954620.2	3863013.125	6831.4824
208	659	-116.3741667	32.75555556	22333	-6.839	1.4063	219.25	-12954712.98	3862902.819	6807.0984
209	660	-116.375	32.75444444	22253	-8.7231	1.6589	218.52	-12954805.74	3862755.743	6782.7144
210	662	-116.3758333	32.75361111	22172	-8.9813	2.4884	216.92	-12954898.5	3862645.439	6758.0256
211	663	-116.3763889	32.7525	22094	-9.9316	2.9608	215.55	-12954960.35	3862498.368	6734.2512
212	663	-116.3772222	32.75166667	22020	-10.563	2.4609	214.87	-12955053.12	3862388.067	6711.696
213	664	-116.3780556	32.75055556	21947	-5.5316	1.6589	214.55	-12955145.89	3862240.999	6689.4456
214	665	-116.3788889	32.74944444	21874	-3.3234	1.5765	215.29	-12955238.65	3862093.932	6667.1952
215	667	-116.3797222	32.74833333	21801	-0.44495	2.3621	216.13	-12955331.41	3861946.867	6644.9448
216	667	-116.3805556	32.74722222	21731	-4.7626	3.3344	216.21	-12955424.19	3861799.805	6623.6088
